date Mon Jun 12 12:46:17.995 pm 2023
base hex  timestamps absolute
internal events logged
// version 8.5.0
Begin Triggerblock Mon Jun 12 12:46:17.995 pm 2023
   0.000000 Start of measurement
   0.000000 1  c0              Rx   d 32 02 5D FE E7 7F 10 27 01 E0 7F FF F3 BF FF FB 3F FC FF FF FF FF FF FE 07 00 00 00 00 00 00 00 00   Length = 0 BitCount = 0 ID = 192
   0.008064 1  c0              Rx   d 32 C5 5E FE E7 7F 10 27 01 E0 7F FF F3 BF FF FB 3F FC FF FF FF FF FF FE 07 00 00 00 00 00 00 00 00   Length = 0 BitCount = 0 ID = 192
   0.019916 1  c0              Rx   d 32 7B 5F FE E7 7F 10 27 01 E0 7F FF F3 BF FF FB 3F FC FF FF FF FF FF FE 07 00 00 00 00 00 00 00 00   Length = 0 BitCount = 0 ID = 192
   0.028807 1  c0              Rx   d 32 7F 50 FE E7 7F 10 27 01 E0 7F FF F3 BF FF FB 3F FC FF FF FF FF FF FE 07 00 00 00 00 00 00 00 00   Length = 0 BitCount = 0 ID = 192
   0.038474 1  c0              Rx   d 32 C8 51 FE E7 7F 10 27 01 E0 7F FF F3 BF FF FB 3F FC FF FF FF FF FF FE 07 00 00 00 00 00 00 00 00   Length = 0 BitCount = 0 ID = 192
   0.050189 1  c0              Rx   d 32 FB 52 FE E7 7F 10 27 01 E0 7F FF F3 BF FF FB 3F FC FF FF FF FF FF FE 07 00 00 00 00 00 00 00 00   Length = 0 BitCount = 0 ID = 192
   0.056473 1  c0              Rx   d 32 40 53 FE E7 7F 10 27 01 E0 7F FF F3 BF FF FB 3F FC FF FF FF FF FF FE 07 00 00 00 00 00 00 00 00   Length = 0 BitCount = 0 ID = 192
   0.058908 1  12dd54b1x       Rx   d 32 00 10 FF EF 7F FF EF 7F E8 A3 3F 00 FA 01 FF F3 BF 00 00 00 00 00 02 00 00 00 00 00 00 00 00 00   Length = 0 BitCount = 0 ID = 316495025x
   0.070558 1  c0              Rx   d 32 4B 54 FE E7 7F 10 27 01 E0 7F FF F3 BF FF FB 3F FC FF FF FF FF FF FE 07 00 00 00 00 00 00 00 00   Length = 0 BitCount = 0 ID = 192
   0.078416 1  c0              Rx   d 32 04 55 FE E7 7F 10 27 01 E0 7F FF F3 BF FF FB 3F FC FF FF FF FF FF FE 07 00 00 00 00 00 00 00 00   Length = 0 BitCount = 0 ID = 192
   0.080421 1  1b00007cx       Rx   d 8 00 40 08 01 00 00 00 00   Length = 0 BitCount = 0 ID = 452984956x
   0.088393 1  c0              Rx   d 32 2B 56 FE E7 7F 10 27 01 E0 7F FF F3 BF FF FB 3F FC FF FF FF FF FF FE 07 00 00 00 00 00 00 00 00   Length = 0 BitCount = 0 ID = 192
   0.096732 1  c0              Rx   d 32 F2 57 FE E7 7F 10 27 01 E0 7F FF F3 BF FF FB 3F FC FF FF FF FF FF FE 07 00 00 00 00 00 00 00 00   Length = 0 BitCount = 0 ID = 192
   0.108653 1  c0              Rx   d 32 91 58 FE E7 7F 10 27 01 E0 7F FF F3 BF FF FB 3F FC FF FF FF FF FF FE 07 00 00 00 00 00 00 00 00   Length = 0 BitCount = 0 ID = 192
   0.116580 1  c0              Rx   d 32 BD 59 FE E7 7F 10 27 01 E0 7F FF F3 BF FF FB 3F FC FF FF FF FF FF FE 07 00 00 00 00 00 00 00 00   Length = 0 BitCount = 0 ID = 192
   0.128655 1  c0              Rx   d 32 3B 5A FE E7 7F 10 27 01 E0 7F FF F3 BF FF FB 3F FC FF FF FF FF FF FE 07 00 00 00 00 00 00 00 00   Length = 0 BitCount = 0 ID = 192
   0.136526 1  c0              Rx   d 32 C9 5B FE E7 7F 10 27 01 E0 7F FF F3 BF FF FB 3F FC FF FF FF FF FF FE 07 00 00 00 00 00 00 00 00   Length = 0 BitCount = 0 ID = 192
   0.148608 1  c0              Rx   d 32 B6 5C FE E7 7F 10 27 01 E0 7F FF F3 BF FF FB 3F FC FF FF FF FF FF FE 07 00 00 00 00 00 00 00 00   Length = 0 BitCount = 0 ID = 192
   0.156466 1  17f0007cx       Rx   d 8 20 00 00 00 4F 0F 01 80   Length = 0 BitCount = 0 ID = 401604732x
   0.160580 1  c0              Rx   d 32 02 5D FE E7 7F 10 27 01 E0 7F FF F3 BF FF FB 3F FC FF FF FF FF FF FE 07 00 00 00 00 00 00 00 00   Length = 0 BitCount = 0 ID = 192
   0.160580 1  b8              Rx   d 8 00 00 00 FF 03 F0 9F 00   Length = 0 BitCount = 0 ID = 184
   0.160580 1  12dd54b1x       Rx   d 32 00 10 FF EF 7F FF EF 7F E8 A3 3F 00 FA 01 FF F3 BF 00 00 00 00 00 02 00 00 00 00 00 00 00 00 00   Length = 0 BitCount = 0 ID = 316495025x
   0.160580 1  16a954e0x       Rx   d 8 00 00 00 00 00 00 00 00   Length = 0 BitCount = 0 ID = 380196064x
   0.160580 1  1a555549x       Rx   d 8 B3 E0 07 E0 2E 36 01 43   Length = 0 BitCount = 0 ID = 441800009x
   0.168157 1  c0              Rx   d 32 C5 5E FE E7 7F 10 27 01 E0 7F FF F3 BF FF FB 3F FC FF FF FF FF FF FE 07 00 00 00 00 00 00 00 00   Length = 0 BitCount = 0 ID = 192
   0.180249 1  c0              Rx   d 32 7B 5F FE E7 7F 10 27 01 E0 7F FF F3 BF FF FB 3F FC FF FF FF FF FF FE 07 00 00 00 00 00 00 00 00   Length = 0 BitCount = 0 ID = 192
   0.190090 1  c0              Rx   d 32 7F 50 FE E7 7F 10 27 01 E0 7F FF F3 BF FF FB 3F FC FF FF FF FF FF FE 07 00 00 00 00 00 00 00 00   Length = 0 BitCount = 0 ID = 192
   0.198232 1  c0              Rx   d 32 C8 51 FE E7 7F 10 27 01 E0 7F FF F3 BF FF FB 3F FC FF FF FF FF FF FE 07 00 00 00 00 00 00 00 00   Length = 0 BitCount = 0 ID = 192
   0.209421 1  c0              Rx   d 32 FB 52 FE E7 7F 10 27 01 E0 7F FF F3 BF FF FB 3F FC FF FF FF FF FF FE 07 00 00 00 00 00 00 00 00   Length = 0 BitCount = 0 ID = 192
   0.216395 1  c0              Rx   d 32 40 53 FE E7 7F 10 27 01 E0 7F FF F3 BF FF FB 3F FC FF FF FF FF FF FE 07 00 00 00 00 00 00 00 00   Length = 0 BitCount = 0 ID = 192
   0.228412 1  c0              Rx   d 32 4B 54 FE E7 7F 10 27 01 E0 7F FF F3 BF FF FB 3F FC FF FF FF FF FF FE 07 00 00 00 00 00 00 00 00   Length = 0 BitCount = 0 ID = 192
   0.240382 1  c0              Rx   d 32 04 55 FE E7 7F 10 27 01 E0 7F FF F3 BF FF FB 3F FC FF FF FF FF FF FE 07 00 00 00 00 00 00 00 00   Length = 0 BitCount = 0 ID = 192
   0.248502 1  c0              Rx   d 32 2B 56 FE E7 7F 10 27 01 E0 7F FF F3 BF FF FB 3F FC FF FF FF FF FF FE 07 00 00 00 00 00 00 00 00   Length = 0 BitCount = 0 ID = 192
   0.256486 1  c0              Rx   d 32 F2 57 FE E7 7F 10 27 01 E0 7F FF F3 BF FF FB 3F FC FF FF FF FF FF FE 07 00 00 00 00 00 00 00 00   Length = 0 BitCount = 0 ID = 192
   0.260588 1  12dd54b1x       Rx   d 32 00 10 FF EF 7F FF EF 7F E8 A3 3F 00 FA 01 FF F3 BF 00 00 00 00 00 02 00 00 00 00 00 00 00 00 00   Length = 0 BitCount = 0 ID = 316495025x
   0.268455 1  c0              Rx   d 32 91 58 FE E7 7F 10 27 01 E0 7F FF F3 BF FF FB 3F FC FF FF FF FF FF FE 07 00 00 00 00 00 00 00 00   Length = 0 BitCount = 0 ID = 192
   0.279439 1  c0              Rx   d 32 BD 59 FE E7 7F 10 27 01 E0 7F FF F3 BF FF FB 3F FC FF FF FF FF FF FE 07 00 00 00 00 00 00 00 00   Length = 0 BitCount = 0 ID = 192
   0.281607 1  1b00007cx       Rx   d 8 00 40 08 01 00 00 00 00   Length = 0 BitCount = 0 ID = 452984956x
   0.289107 1  c0              Rx   d 32 3B 5A FE E7 7F 10 27 01 E0 7F FF F3 BF FF FB 3F FC FF FF FF FF FF FE 07 00 00 00 00 00 00 00 00   Length = 0 BitCount = 0 ID = 192
   0.299916 1  c0              Rx   d 32 C9 5B FE E7 7F 10 27 01 E0 7F FF F3 BF FF FB 3F FC FF FF FF FF FF FE 07 00 00 00 00 00 00 00 00   Length = 0 BitCount = 0 ID = 192
   0.308007 1  c0              Rx   d 32 B6 5C FE E7 7F 10 27 01 E0 7F FF F3 BF FF FB 3F FC FF FF FF FF FF FE 07 00 00 00 00 00 00 00 00   Length = 0 BitCount = 0 ID = 192
   0.319899 1  c0              Rx   d 32 02 5D FE E7 7F 10 27 01 E0 7F FF F3 BF FF FB 3F FC FF FF FF FF FF FE 07 00 00 00 00 00 00 00 00   Length = 0 BitCount = 0 ID = 192
   0.328848 1  c0              Rx   d 32 C5 5E FE E7 7F 10 27 01 E0 7F FF F3 BF FF FB 3F FC FF FF FF FF FF FE 07 00 00 00 00 00 00 00 00   Length = 0 BitCount = 0 ID = 192
   0.336825 1  c0              Rx   d 32 7B 5F FE E7 7F 10 27 01 E0 7F FF F3 BF FF FB 3F FC FF FF FF FF FF FE 07 00 00 00 00 00 00 00 00   Length = 0 BitCount = 0 ID = 192
   0.349363 1  c0              Rx   d 32 7F 50 FE E7 7F 10 27 01 E0 7F FF F3 BF FF FB 3F FC FF FF FF FF FF FE 07 00 00 00 00 00 00 00 00   Length = 0 BitCount = 0 ID = 192
   0.360180 1  c0              Rx   d 32 C8 51 FE E7 7F 10 27 01 E0 7F FF F3 BF FF FB 3F FC FF FF FF FF FF FE 07 00 00 00 00 00 00 00 00   Length = 0 BitCount = 0 ID = 192
   0.360180 1  12dd54b1x       Rx   d 32 00 10 FF EF 7F FF EF 7F E8 A3 3F 00 FA 01 FF F3 BF 00 00 00 00 00 02 00 00 00 00 00 00 00 00 00   Length = 0 BitCount = 0 ID = 316495025x
   0.368190 1  c0              Rx   d 32 FB 52 FE E7 7F 10 27 01 E0 7F FF F3 BF FF FB 3F FC FF FF FF FF FF FE 07 00 00 00 00 00 00 00 00   Length = 0 BitCount = 0 ID = 192
   0.380124 1  c0              Rx   d 32 40 53 FE E7 7F 10 27 01 E0 7F FF F3 BF FF FB 3F FC FF FF FF FF FF FE 07 00 00 00 00 00 00 00 00   Length = 0 BitCount = 0 ID = 192
   0.388097 1  c0              Rx   d 32 4B 54 FE E7 7F 10 27 01 E0 7F FF F3 BF FF FB 3F FC FF FF FF FF FF FE 07 00 00 00 00 00 00 00 00   Length = 0 BitCount = 0 ID = 192
   0.399493 1  c0              Rx   d 32 04 55 FE E7 7F 10 27 01 E0 7F FF F3 BF FF FB 3F FC FF FF FF FF FF FE 07 00 00 00 00 00 00 00 00   Length = 0 BitCount = 0 ID = 192
   0.406358 1  c0              Rx   d 32 2B 56 FE E7 7F 10 27 01 E0 7F FF F3 BF FF FB 3F FC FF FF FF FF FF FE 07 00 00 00 00 00 00 00 00   Length = 0 BitCount = 0 ID = 192
   0.418324 1  c0              Rx   d 32 F2 57 FE E7 7F 10 27 01 E0 7F FF F3 BF FF FB 3F FC FF FF FF FF FF FE 07 00 00 00 00 00 00 00 00   Length = 0 BitCount = 0 ID = 192
   0.430590 1  c0              Rx   d 32 91 58 FE E7 7F 10 27 01 E0 7F FF F3 BF FF FB 3F FC FF FF FF FF FF FE 07 00 00 00 00 00 00 00 00   Length = 0 BitCount = 0 ID = 192
   0.438592 1  c0              Rx   d 32 BD 59 FE E7 7F 10 27 01 E0 7F FF F3 BF FF FB 3F FC FF FF FF FF FF FE 07 00 00 00 00 00 00 00 00   Length = 0 BitCount = 0 ID = 192
   0.446569 1  c0              Rx   d 32 3B 5A FE E7 7F 10 27 01 E0 7F FF F3 BF FF FB 3F FC FF FF FF FF FF FE 07 00 00 00 00 00 00 00 00   Length = 0 BitCount = 0 ID = 192
   0.456540 1  c0              Rx   d 32 C9 5B FE E7 7F 10 27 01 E0 7F FF F3 BF FF FB 3F FC FF FF FF FF FF FE 07 00 00 00 00 00 00 00 00   Length = 0 BitCount = 0 ID = 192
   0.456540 1  12dd54b1x       Rx   d 32 00 10 FF EF 7F FF EF 7F E8 A3 3F 00 FA 01 FF F3 BF 00 00 00 00 00 02 00 00 00 00 00 00 00 00 00   Length = 0 BitCount = 0 ID = 316495025x
   0.468522 1  c0              Rx   d 32 B6 5C FE E7 7F 10 27 01 E0 7F FF F3 BF FF FB 3F FC FF FF FF FF FF FE 07 00 00 00 00 00 00 00 00   Length = 0 BitCount = 0 ID = 192
   0.476023 1  c0              Rx   d 32 02 5D FE E7 7F 10 27 01 E0 7F FF F3 BF FF FB 3F FC FF FF FF FF FF FE 07 00 00 00 00 00 00 00 00   Length = 0 BitCount = 0 ID = 192
   0.482004 1  1b00007cx       Rx   d 8 00 40 08 01 00 00 00 00   Length = 0 BitCount = 0 ID = 452984956x
   0.489508 1  c0              Rx   d 32 C5 5E FE E7 7F 10 27 01 E0 7F FF F3 BF FF FB 3F FC FF FF FF FF FF FE 07 00 00 00 00 00 00 00 00   Length = 0 BitCount = 0 ID = 192
   0.496381 1  c0              Rx   d 32 7B 5F FE E7 7F 10 27 01 E0 7F FF F3 BF FF FB 3F FC FF FF FF FF FF FE 07 00 00 00 00 00 00 00 00   Length = 0 BitCount = 0 ID = 192
   0.508889 1  c0              Rx   d 32 7F 50 FE E7 7F 10 27 01 E0 7F FF F3 BF FF FB 3F FC FF FF FF FF FF FE 07 00 00 00 00 00 00 00 00   Length = 0 BitCount = 0 ID = 192
   0.515833 1  c0              Rx   d 32 C8 51 FE E7 7F 10 27 01 E0 7F FF F3 BF FF FB 3F FC FF FF FF FF FF FE 07 00 00 00 00 00 00 00 00   Length = 0 BitCount = 0 ID = 192
   0.527792 1  c0              Rx   d 32 FB 52 FE E7 7F 10 27 01 E0 7F FF F3 BF FF FB 3F FC FF FF FF FF FF FE 07 00 00 00 00 00 00 00 00   Length = 0 BitCount = 0 ID = 192
   0.539761 1  c0              Rx   d 32 40 53 FE E7 7F 10 27 01 E0 7F FF F3 BF FF FB 3F FC FF FF FF FF FF FE 07 00 00 00 00 00 00 00 00   Length = 0 BitCount = 0 ID = 192
   0.546616 1  c0              Rx   d 32 4B 54 FE E7 7F 10 27 01 E0 7F FF F3 BF FF FB 3F FC FF FF FF FF FF FE 07 00 00 00 00 00 00 00 00   Length = 0 BitCount = 0 ID = 192
   0.560403 1  c0              Rx   d 32 04 55 FE E7 7F 10 27 01 E0 7F FF F3 BF FF FB 3F FC FF FF FF FF FF FE 07 00 00 00 00 00 00 00 00   Length = 0 BitCount = 0 ID = 192
   0.560403 1  12dd54b1x       Rx   d 32 00 10 FF EF 7F FF EF 7F E8 A3 3F 00 FA 01 FF F3 BF 00 00 00 00 00 02 00 00 00 00 00 00 00 00 00   Length = 0 BitCount = 0 ID = 316495025x
   0.568465 1  c0              Rx   d 32 2B 56 FE E7 7F 10 27 01 E0 7F FF F3 BF FF FB 3F FC FF FF FF FF FF FE 07 00 00 00 00 00 00 00 00   Length = 0 BitCount = 0 ID = 192
   0.578309 1  c0              Rx   d 32 F2 57 FE E7 7F 10 27 01 E0 7F FF F3 BF FF FB 3F FC FF FF FF FF FF FE 07 00 00 00 00 00 00 00 00   Length = 0 BitCount = 0 ID = 192
   0.590484 1  c0              Rx   d 32 91 58 FE E7 7F 10 27 01 E0 7F FF F3 BF FF FB 3F FC FF FF FF FF FF FE 07 00 00 00 00 00 00 00 00   Length = 0 BitCount = 0 ID = 192
   0.598464 1  c0              Rx   d 32 BD 59 FE E7 7F 10 27 01 E0 7F FF F3 BF FF FB 3F FC FF FF FF FF FF FE 07 00 00 00 00 00 00 00 00   Length = 0 BitCount = 0 ID = 192
   0.609358 1  c0              Rx   d 32 3B 5A FE E7 7F 10 27 01 E0 7F FF F3 BF FF FB 3F FC FF FF FF FF FF FE 07 00 00 00 00 00 00 00 00   Length = 0 BitCount = 0 ID = 192
   0.618239 1  c0              Rx   d 32 C9 5B FE E7 7F 10 27 01 E0 7F FF F3 BF FF FB 3F FC FF FF FF FF FF FE 07 00 00 00 00 00 00 00 00   Length = 0 BitCount = 0 ID = 192
   0.628825 1  c0              Rx   d 32 B6 5C FE E7 7F 10 27 01 E0 7F FF F3 BF FF FB 3F FC FF FF FF FF FF FE 07 00 00 00 00 00 00 00 00   Length = 0 BitCount = 0 ID = 192
   0.635761 1  c0              Rx   d 32 02 5D FE E7 7F 10 27 01 E0 7F FF F3 BF FF FB 3F FC FF FF FF FF FF FE 07 00 00 00 00 00 00 00 00   Length = 0 BitCount = 0 ID = 192
   0.648111 1  c0              Rx   d 32 C5 5E FE E7 7F 10 27 01 E0 7F FF F3 BF FF FB 3F FC FF FF FF FF FF FE 07 00 00 00 00 00 00 00 00   Length = 0 BitCount = 0 ID = 192
   0.656969 1  17f0007cx       Rx   d 8 20 00 00 00 4F 0F 01 80   Length = 0 BitCount = 0 ID = 401604732x
   0.656969 1  b8              Rx   d 8 00 00 00 FF 03 F0 9F 00   Length = 0 BitCount = 0 ID = 184
   0.656969 1  c0              Rx   d 32 7B 5F FE E7 7F 10 27 01 E0 7F FF F3 BF FF FB 3F FC FF FF FF FF FF FE 07 00 00 00 00 00 00 00 00   Length = 0 BitCount = 0 ID = 192
   0.656969 1  12dd54b1x       Rx   d 32 00 10 FF EF 7F FF EF 7F E8 A3 3F 00 FA 01 FF F3 BF 00 00 00 00 00 02 00 00 00 00 00 00 00 00 00   Length = 0 BitCount = 0 ID = 316495025x
   0.656969 1  1a555549x       Rx   d 8 B3 E0 07 E0 2E 36 01 43   Length = 0 BitCount = 0 ID = 441800009x
   0.666569 1  c0              Rx   d 32 7F 50 FE E7 7F 10 27 01 E0 7F FF F3 BF FF FB 3F FC FF FF FF FF FF FE 07 00 00 00 00 00 00 00 00   Length = 0 BitCount = 0 ID = 192
   0.678651 1  c0              Rx   d 32 C8 51 FE E7 7F 10 27 01 E0 7F FF F3 BF FF FB 3F FC FF FF FF FF FF FE 07 00 00 00 00 00 00 00 00   Length = 0 BitCount = 0 ID = 192
   0.680538 1  1b00007cx       Rx   d 8 00 40 08 01 00 00 00 00   Length = 0 BitCount = 0 ID = 452984956x
   0.686295 1  c0              Rx   d 32 FB 52 FE E7 7F 10 27 01 E0 7F FF F3 BF FF FB 3F FC FF FF FF FF FF FE 07 00 00 00 00 00 00 00 00   Length = 0 BitCount = 0 ID = 192
   0.698280 1  c0              Rx   d 32 40 53 FE E7 7F 10 27 01 E0 7F FF F3 BF FF FB 3F FC FF FF FF FF FF FE 07 00 00 00 00 00 00 00 00   Length = 0 BitCount = 0 ID = 192
   0.709250 1  c0              Rx   d 32 4B 54 FE E7 7F 10 27 01 E0 7F FF F3 BF FF FB 3F FC FF FF FF FF FF FE 07 00 00 00 00 00 00 00 00   Length = 0 BitCount = 0 ID = 192
   0.716277 1  c0              Rx   d 32 04 55 FE E7 7F 10 27 01 E0 7F FF F3 BF FF FB 3F FC FF FF FF FF FF FE 07 00 00 00 00 00 00 00 00   Length = 0 BitCount = 0 ID = 192
   0.728312 1  c0              Rx   d 32 11 56 FE E7 7F 10 27 02 E0 7F FF F3 BF FF FB 3F FC FF FF FF FF FF FE 07 00 00 00 00 00 00 00 00   Length = 0 BitCount = 0 ID = 192
   0.740209 1  c0              Rx   d 32 F2 57 FE E7 7F 10 27 01 E0 7F FF F3 BF FF FB 3F FC FF FF FF FF FF FE 07 00 00 00 00 00 00 00 00   Length = 0 BitCount = 0 ID = 192
   0.748194 1  c0              Rx   d 32 91 58 FE E7 7F 10 27 01 E0 7F FF F3 BF FF FB 3F FC FF FF FF FF FF FE 07 00 00 00 00 00 00 00 00   Length = 0 BitCount = 0 ID = 192
   0.759938 1  c0              Rx   d 32 BD 59 FE E7 7F 10 27 01 E0 7F FF F3 BF FF FB 3F FC FF FF FF FF FF FE 07 00 00 00 00 00 00 00 00   Length = 0 BitCount = 0 ID = 192
   0.759938 1  12dd54b1x       Rx   d 32 00 10 FF EF 7F FF EF 7F E8 A3 3F 00 FA 01 FF F3 BF 00 00 00 00 00 02 00 00 00 00 00 00 00 00 00   Length = 0 BitCount = 0 ID = 316495025x
   0.767866 1  c0              Rx   d 32 3B 5A FE E7 7F 10 27 01 E0 7F FF F3 BF FF FB 3F FC FF FF FF FF FF FE 07 00 00 00 00 00 00 00 00   Length = 0 BitCount = 0 ID = 192
   0.778854 1  c0              Rx   d 32 C9 5B FE E7 7F 10 27 01 E0 7F FF F3 BF FF FB 3F FC FF FF FF FF FF FE 07 00 00 00 00 00 00 00 00   Length = 0 BitCount = 0 ID = 192
   0.786706 1  c0              Rx   d 32 B6 5C FE E7 7F 10 27 01 E0 7F FF F3 BF FF FB 3F FC FF FF FF FF FF FE 07 00 00 00 00 00 00 00 00   Length = 0 BitCount = 0 ID = 192
   0.799793 1  c0              Rx   d 32 02 5D FE E7 7F 10 27 01 E0 7F FF F3 BF FF FB 3F FC FF FF FF FF FF FE 07 00 00 00 00 00 00 00 00   Length = 0 BitCount = 0 ID = 192
   0.806653 1  c0              Rx   d 32 C5 5E FE E7 7F 10 27 01 E0 7F FF F3 BF FF FB 3F FC FF FF FF FF FF FE 07 00 00 00 00 00 00 00 00   Length = 0 BitCount = 0 ID = 192
   0.818662 1  c0              Rx   d 32 7B 5F FE E7 7F 10 27 01 E0 7F FF F3 BF FF FB 3F FC FF FF FF FF FF FE 07 00 00 00 00 00 00 00 00   Length = 0 BitCount = 0 ID = 192
   0.826610 1  c0              Rx   d 32 7F 50 FE E7 7F 10 27 01 E0 7F FF F3 BF FF FB 3F FC FF FF FF FF FF FE 07 00 00 00 00 00 00 00 00   Length = 0 BitCount = 0 ID = 192
   0.838693 1  c0              Rx   d 32 C8 51 FE E7 7F 10 27 01 E0 7F FF F3 BF FF FB 3F FC FF FF FF FF FF FE 07 00 00 00 00 00 00 00 00   Length = 0 BitCount = 0 ID = 192
   0.846560 1  c0              Rx   d 32 FB 52 FE E7 7F 10 27 01 E0 7F FF F3 BF FF FB 3F FC FF FF FF FF FF FE 07 00 00 00 00 00 00 00 00   Length = 0 BitCount = 0 ID = 192
   0.858577 1  c0              Rx   d 32 40 53 FE E7 7F 10 27 01 E0 7F FF F3 BF FF FB 3F FC FF FF FF FF FF FE 07 00 00 00 00 00 00 00 00   Length = 0 BitCount = 0 ID = 192
   0.858577 1  12dd54b1x       Rx   d 32 00 10 FF EF 7F FF EF 7F E8 A3 3F 00 FA 01 FF F3 BF 00 00 00 00 00 02 00 00 00 00 00 00 00 00 00   Length = 0 BitCount = 0 ID = 316495025x
   0.866505 1  c0              Rx   d 32 4B 54 FE E7 7F 10 27 01 E0 7F FF F3 BF FF FB 3F FC FF FF FF FF FF FE 07 00 00 00 00 00 00 00 00   Length = 0 BitCount = 0 ID = 192
   0.878517 1  c0              Rx   d 32 04 55 FE E7 7F 10 27 01 E0 7F FF F3 BF FF FB 3F FC FF FF FF FF FF FE 07 00 00 00 00 00 00 00 00   Length = 0 BitCount = 0 ID = 192
   0.880464 1  1b00007cx       Rx   d 8 00 40 08 01 00 00 00 00   Length = 0 BitCount = 0 ID = 452984956x
   0.888440 1  c0              Rx   d 32 2B 56 FE E7 7F 10 27 01 E0 7F FF F3 BF FF FB 3F FC FF FF FF FF FF FE 07 00 00 00 00 00 00 00 00   Length = 0 BitCount = 0 ID = 192
   0.900422 1  c0              Rx   d 32 F2 57 FE E7 7F 10 27 01 E0 7F FF F3 BF FF FB 3F FC FF FF FF FF FF FE 07 00 00 00 00 00 00 00 00   Length = 0 BitCount = 0 ID = 192
   0.908379 1  c0              Rx   d 32 91 58 FE E7 7F 10 27 01 E0 7F FF F3 BF FF FB 3F FC FF FF FF FF FF FE 07 00 00 00 00 00 00 00 00   Length = 0 BitCount = 0 ID = 192
   0.920463 1  c0              Rx   d 32 BD 59 FE E7 7F 10 27 01 E0 7F FF F3 BF FF FB 3F FC FF FF FF FF FF FE 07 00 00 00 00 00 00 00 00   Length = 0 BitCount = 0 ID = 192
   0.928695 1  c0              Rx   d 32 3B 5A FE E7 7F 10 27 01 E0 7F FF F3 BF FF FB 3F FC FF FF FF FF FF FE 07 00 00 00 00 00 00 00 00   Length = 0 BitCount = 0 ID = 192
   0.940418 1  c0              Rx   d 32 C9 5B FE E7 7F 10 27 01 E0 7F FF F3 BF FF FB 3F FC FF FF FF FF FF FE 07 00 00 00 00 00 00 00 00   Length = 0 BitCount = 0 ID = 192
   0.949020 1  c0              Rx   d 32 B6 5C FE E7 7F 10 27 01 E0 7F FF F3 BF FF FB 3F FC FF FF FF FF FF FE 07 00 00 00 00 00 00 00 00   Length = 0 BitCount = 0 ID = 192
   0.957022 1  c0              Rx   d 32 02 5D FE E7 7F 10 27 01 E0 7F FF F3 BF FF FB 3F FC FF FF FF FF FF FE 07 00 00 00 00 00 00 00 00   Length = 0 BitCount = 0 ID = 192
   0.957022 1  12dd54b1x       Rx   d 32 00 10 FF EF 7F FF EF 7F E8 A3 3F 00 FA 01 FF F3 BF 00 00 00 00 00 02 00 00 00 00 00 00 00 00 00   Length = 0 BitCount = 0 ID = 316495025x
   0.968978 1  c0              Rx   d 32 C5 5E FE E7 7F 10 27 01 E0 7F FF F3 BF FF FB 3F FC FF FF FF FF FF FE 07 00 00 00 00 00 00 00 00   Length = 0 BitCount = 0 ID = 192
   0.977020 1  c0              Rx   d 32 7B 5F FE E7 7F 10 27 01 E0 7F FF F3 BF FF FB 3F FC FF FF FF FF FF FE 07 00 00 00 00 00 00 00 00   Length = 0 BitCount = 0 ID = 192
   0.989048 1  c0              Rx   d 32 7F 50 FE E7 7F 10 27 01 E0 7F FF F3 BF FF FB 3F FC FF FF FF FF FF FE 07 00 00 00 00 00 00 00 00   Length = 0 BitCount = 0 ID = 192
   0.996916 1  c0              Rx   d 32 C8 51 FE E7 7F 10 27 01 E0 7F FF F3 BF FF FB 3F FC FF FF FF FF FF FE 07 00 00 00 00 00 00 00 00   Length = 0 BitCount = 0 ID = 192
   1.009002 1  c0              Rx   d 32 FB 52 FE E7 7F 10 27 01 E0 7F FF F3 BF FF FB 3F FC FF FF FF FF FF FE 07 00 00 00 00 00 00 00 00   Length = 0 BitCount = 0 ID = 192
   1.016888 1  c0              Rx   d 32 40 53 FE E7 7F 10 27 01 E0 7F FF F3 BF FF FB 3F FC FF FF FF FF FF FE 07 00 00 00 00 00 00 00 00   Length = 0 BitCount = 0 ID = 192
   1.026833 1  c0              Rx   d 32 71 54 FE E7 7F 10 27 02 E0 7F FF F3 BF FF FB 3F FC FF FF FF FF FF FE 07 00 00 00 00 00 00 00 00   Length = 0 BitCount = 0 ID = 192
   1.038801 1  c0              Rx   d 32 04 55 FE E7 7F 10 27 01 E0 7F FF F3 BF FF FB 3F FC FF FF FF FF FF FE 07 00 00 00 00 00 00 00 00   Length = 0 BitCount = 0 ID = 192
   1.050299 1  c0              Rx   d 32 2B 56 FE E7 7F 10 27 01 E0 7F FF F3 BF FF FB 3F FC FF FF FF FF FF FE 07 00 00 00 00 00 00 00 00   Length = 0 BitCount = 0 ID = 192
   1.060223 1  c0              Rx   d 32 F2 57 FE E7 7F 10 27 01 E0 7F FF F3 BF FF FB 3F FC FF FF FF FF FF FE 07 00 00 00 00 00 00 00 00   Length = 0 BitCount = 0 ID = 192
   1.060223 1  12dd54b1x       Rx   d 32 00 10 FF EF 7F FF EF 7F E8 A3 3F 00 FA 01 FF F3 BF 00 00 00 00 00 02 00 00 00 00 00 00 00 00 00   Length = 0 BitCount = 0 ID = 316495025x
   1.068222 1  c0              Rx   d 32 91 58 FE E7 7F 10 27 01 E0 7F FF F3 BF FF FB 3F FC FF FF FF FF FF FE 07 00 00 00 00 00 00 00 00   Length = 0 BitCount = 0 ID = 192
   1.080296 1  c0              Rx   d 32 BD 59 FE E7 7F 10 27 01 E0 7F FF F3 BF FF FB 3F FC FF FF FF FF FF FE 07 00 00 00 00 00 00 00 00   Length = 0 BitCount = 0 ID = 192
   1.082282 1  1b00007cx       Rx   d 8 00 40 08 01 00 00 00 00   Length = 0 BitCount = 0 ID = 452984956x
   1.090158 1  c0              Rx   d 32 3B 5A FE E7 7F 10 27 01 E0 7F FF F3 BF FF FB 3F FC FF FF FF FF FF FE 07 00 00 00 00 00 00 00 00   Length = 0 BitCount = 0 ID = 192
   1.098243 1  c0              Rx   d 32 C9 5B FE E7 7F 10 27 01 E0 7F FF F3 BF FF FB 3F FC FF FF FF FF FF FE 07 00 00 00 00 00 00 00 00   Length = 0 BitCount = 0 ID = 192
   1.110141 1  c0              Rx   d 32 B6 5C FE E7 7F 10 27 01 E0 7F FF F3 BF FF FB 3F FC FF FF FF FF FF FE 07 00 00 00 00 00 00 00 00   Length = 0 BitCount = 0 ID = 192
   1.118086 1  c0              Rx   d 32 02 5D FE E7 7F 10 27 01 E0 7F FF F3 BF FF FB 3F FC FF FF FF FF FF FE 07 00 00 00 00 00 00 00 00   Length = 0 BitCount = 0 ID = 192
   1.130094 1  c0              Rx   d 32 C5 5E FE E7 7F 10 27 01 E0 7F FF F3 BF FF FB 3F FC FF FF FF FF FF FE 07 00 00 00 00 00 00 00 00   Length = 0 BitCount = 0 ID = 192
   1.138016 1  c0              Rx   d 32 7B 5F FE E7 7F 10 27 01 E0 7F FF F3 BF FF FB 3F FC FF FF FF FF FF FE 07 00 00 00 00 00 00 00 00   Length = 0 BitCount = 0 ID = 192
   1.150000 1  c0              Rx   d 32 7F 50 FE E7 7F 10 27 01 E0 7F FF F3 BF FF FB 3F FC FF FF FF FF FF FE 07 00 00 00 00 00 00 00 00   Length = 0 BitCount = 0 ID = 192
   1.155981 1  17f0007cx       Rx   d 8 20 00 00 00 4F 0F 01 80   Length = 0 BitCount = 0 ID = 401604732x
   1.160004 1  c0              Rx   d 32 C8 51 FE E7 7F 10 27 01 E0 7F FF F3 BF FF FB 3F FC FF FF FF FF FF FE 07 00 00 00 00 00 00 00 00   Length = 0 BitCount = 0 ID = 192
   1.160004 1  b8              Rx   d 8 00 00 00 FF 03 F0 9F 00   Length = 0 BitCount = 0 ID = 184
   1.160004 1  12dd54b1x       Rx   d 32 00 10 FF EF 7F FF EF 7F E8 A3 3F 00 FA 01 FF F3 BF 00 00 00 00 00 02 00 00 00 00 00 00 00 00 00   Length = 0 BitCount = 0 ID = 316495025x
   1.160004 1  16a954e0x       Rx   d 8 00 00 00 00 00 00 00 00   Length = 0 BitCount = 0 ID = 380196064x
   1.160004 1  1a555549x       Rx   d 8 B3 E0 07 E0 2E 36 01 43   Length = 0 BitCount = 0 ID = 441800009x
   1.167981 1  c0              Rx   d 32 FB 52 FE E7 7F 10 27 01 E0 7F FF F3 BF FF FB 3F FC FF FF FF FF FF FE 07 00 00 00 00 00 00 00 00   Length = 0 BitCount = 0 ID = 192
   1.179906 1  c0              Rx   d 32 40 53 FE E7 7F 10 27 01 E0 7F FF F3 BF FF FB 3F FC FF FF FF FF FF FE 07 00 00 00 00 00 00 00 00   Length = 0 BitCount = 0 ID = 192
   1.188433 1  c0              Rx   d 32 4B 54 FE E7 7F 10 27 01 E0 7F FF F3 BF FF FB 3F FC FF FF FF FF FF FE 07 00 00 00 00 00 00 00 00   Length = 0 BitCount = 0 ID = 192
   1.196550 1  c0              Rx   d 32 04 55 FE E7 7F 10 27 01 E0 7F FF F3 BF FF FB 3F FC FF FF FF FF FF FE 07 00 00 00 00 00 00 00 00   Length = 0 BitCount = 0 ID = 192
